T1990 7346:722 SEGGER J-Link V6.32i Log File (0001ms, 54987ms total)
T1990 7346:722 DLL Compiled: Jul 24 2018 15:19:55 (0001ms, 54987ms total)
T1990 7346:722 Logging started @ 2018-12-11 11:31 (0001ms, 54987ms total)
T1990 7346:723 JLINK_SetWarnOutHandler(...) (0000ms, 54987ms total)
T1990 7346:723 JLINK_OpenEx(...)
Firmware: J-Link V9 compiled Jun  2 2222 22:22:22
Hardware: V9.40
S/N: 81480416
Feature(s): GDB, RDI, FlashBP, FlashDL, JFlash, RDDI
TELNET listener socket opened on port 19021WEBSRV 
Starting webserver (0024ms, 55011ms total)
T1990 7346:723 WEBSRV Webserver running on local port 19080 (0025ms, 55012ms total)
T1990 7346:723   returns O.K. (0025ms, 55012ms total)
T1990 7346:748 JLINK_GetEmuCaps()  returns 0xB9FF7BBF (0000ms, 55012ms total)
T1990 7346:749 JLINK_TIF_GetAvailable(...) (0001ms, 55013ms total)
T1990 7346:750 JLINK_SetErrorOutHandler(...) (0000ms, 55013ms total)
T1990 7346:750 JLINK_ExecCommand("ProjectFile = "G:\20181206\nrf51822_demo_project\ARM\JLinkSettings.ini"", ...).   returns 0x00 (0002ms, 55015ms total)
T1990 7346:752 JLINK_ExecCommand("Device = nRF51822_xxAA", ...). Device "NRF51822_XXAA" selected.  returns 0x00 (0001ms, 55016ms total)
T1990 7346:753 JLINK_ExecCommand("DisableConnectionTimeout", ...).   returns 0x01 (0000ms, 55016ms total)
T1990 7346:753 JLINK_GetHardwareVersion()  returns 0x16F30 (0000ms, 55016ms total)
T1990 7346:753 JLINK_GetDLLVersion()  returns 63209 (0000ms, 55016ms total)
T1990 7346:753 JLINK_GetFirmwareString(...) (0000ms, 55016ms total)
T1990 7346:753 JLINK_GetDLLVersion()  returns 63209 (0000ms, 55016ms total)
T1990 7346:753 JLINK_GetCompileDateTime() (0000ms, 55016ms total)
T1990 7346:753 JLINK_GetFirmwareString(...) (0000ms, 55016ms total)
T1990 7346:753 JLINK_GetHardwareVersion()  returns 0x16F30 (0000ms, 55016ms total)
T1990 7346:753 JLINK_TIF_Select(JLINKARM_TIF_SWD)  returns 0x00 (0004ms, 55020ms total)
T1990 7346:757 JLINK_SetSpeed(5000) (0002ms, 55022ms total)
T1990 7346:759 JLINK_GetId() >0x10B TIF>Found SW-DP with ID 0x0BB11477 >0x0D TIF> >0x28 TIF> >0x0D TIF> >0x28 TIF> >0x0D TIF> >0x28 TIF> >0x0D TIF> >0x28 TIF> >0x35 TIF> >0x0D TIF> >0x28 TIF>Scanning AP map to find all available APs >0x0D TIF> >0x28 TIF> >0x35 TIF> >0x35 TIF> >0x0D TIF> >0x28 TIF> >0x35 TIF> >0x35 TIF>AP[1]: Stopped AP scan as end of AP map has been reachedAP[0]: AHB-AP (IDR: 0x04770021)Iterating through AP map to find AHB-AP to use >0x42 TIF> >0x28 TIF> >0x0D TIF> >0x28 TIF> >0x35 TIF>
 >0x35 TIF> >0x42 TIF> >0x28 TIF> >0x0D TIF> >0x28 TIF> >0x0D TIF> >0x28 TIF> >0x35 TIF> >0x35 TIF>AP[0]: Core foundAP[0]: AHB-AP ROM base: 0xF0000000 >0x0D TIF> >0x28 TIF> >0x0D TIF> >0x28 TIF> >0x0D TIF> >0x28 TIF> >0x35 TIF> >0x35 TIF>CPUID register: 0x410CC200. Implementer code: 0x41 (ARM)Found Cortex-M0 r0p0, Little endian. -- Max. mem block: 0x00010EA0 -- CPU_ReadMem(4 bytes @ 0xE000EDF0) -- CPU_WriteMem(4 bytes @ 0xE000EDF0) -- CPU_ReadMem(4 bytes @ 0xE0002000)
FPUnit: 4 code (BP) slots and 0 literal slots -- CPU_ReadMem(4 bytes @ 0xE000EDFC) -- CPU_WriteMem(4 bytes @ 0xE000EDFC) -- CPU_ReadMem(4 bytes @ 0xE0001000) -- CPU_WriteMem(4 bytes @ 0xE0001000)CoreSight components:ROMTbl[0] @ F0000000 -- CPU_ReadMem(16 bytes @ 0xF0000000) -- CPU_ReadMem(16 bytes @ 0xE00FFFF0) -- CPU_ReadMem(16 bytes @ 0xE00FFFE0)ROMTbl[0][0]: E00FF000, CID: B105100D, PID: 000BB471 ROM TableROMTbl[1] @ E00FF000 -- CPU_ReadMem(16 bytes @ 0xE00FF000) -- CPU_ReadMem(16 bytes @ 0xE000EFF0)
 -- CPU_ReadMem(16 bytes @ 0xE000EFE0)ROMTbl[1][0]: E000E000, CID: B105E00D, PID: 000BB008 SCS -- CPU_ReadMem(16 bytes @ 0xE0001FF0) -- CPU_ReadMem(16 bytes @ 0xE0001FE0)ROMTbl[1][1]: E0001000, CID: B105E00D, PID: 000BB00A DWT -- CPU_ReadMem(16 bytes @ 0xE0002FF0) -- CPU_ReadMem(16 bytes @ 0xE0002FE0)ROMTbl[1][2]: E0002000, CID: B105E00D, PID: 000BB00B FPB -- CPU_ReadMem(16 bytes @ 0xF0002FF0) -- CPU_ReadMem(16 bytes @ 0xF0002FE0)ROMTbl[0][1]: F0002000, CID: B105900D, PID: 000BB9A3 ???
 -- CPU_ReadMem(4 bytes @ 0x10001004) >0x35 TIF>  returns 0x0BB11477 (0172ms, 55194ms total)
T1990 7346:931 JLINK_GetDLLVersion()  returns 63209 (0000ms, 55194ms total)
T1990 7346:931 JLINK_CORE_GetFound()  returns 0x60000FF (0000ms, 55194ms total)
T1990 7346:931 JLINK_GetDebugInfo(0x100 = JLINKARM_ROM_TABLE_ADDR_INDEX) -- Value=0xF0000000  returns 0x00 (0000ms, 55194ms total)
T1990 7346:931 JLINK_GetDebugInfo(0x100 = JLINKARM_ROM_TABLE_ADDR_INDEX) -- Value=0xF0000000  returns 0x00 (0000ms, 55194ms total)
T1990 7346:931 JLINK_GetDebugInfo(0x101 = JLINKARM_DEBUG_INFO_ETM_ADDR_INDEX) -- Value=0x00000000  returns 0x00 (0000ms, 55194ms total)
T1990 7346:931 JLINK_ReadMemEx(0xE0041FF0, 0x0010 Bytes, ..., Flags = 0x02000004) -- CPU_ReadMem(16 bytes @ 0xE0041FF0) - Data: 00 00 00 00 00 00 00 00 00 00 00 00 00 00 00 00  returns 0x10 (0001ms, 55195ms total)
T1990 7346:932 JLINK_GetDebugInfo(0x102 = JLINKARM_DEBUG_INFO_MTB_ADDR_INDEX) -- Value=0x00000000  returns 0x00 (0000ms, 55195ms total)
T1990 7346:932 JLINK_GetDebugInfo(0x103 = JLINKARM_DEBUG_INFO_TPIU_ADDR_INDEX) -- Value=0x00000000  returns 0x00 (0000ms, 55195ms total)
T1990 7346:932 JLINK_ReadMemEx(0xE0040FF0, 0x0010 Bytes, ..., Flags = 0x02000004) -- CPU_ReadMem(16 bytes @ 0xE0040FF0) - Data: 00 00 00 00 00 00 00 00 00 00 00 00 00 00 00 00  returns 0x10 (0001ms, 55196ms total)
T1990 7346:933 JLINK_GetDebugInfo(0x104 = JLINKARM_DEBUG_INFO_ITM_ADDR_INDEX) -- Value=0xE0000000  returns 0x00 (0000ms, 55196ms total)
T1990 7346:933 JLINK_GetDebugInfo(0x105 = JLINKARM_DEBUG_INFO_DWT_ADDR_INDEX) -- Value=0xE0001000  returns 0x00 (0000ms, 55196ms total)
T1990 7346:933 JLINK_GetDebugInfo(0x106 = JLINKARM_DEBUG_INFO_FPB_ADDR_INDEX) -- Value=0xE0002000  returns 0x00 (0000ms, 55196ms total)
T1990 7346:933 JLINK_GetDebugInfo(0x107 = JLINKARM_DEBUG_INFO_NVIC_ADDR_INDEX) -- Value=0xE000E000  returns 0x00 (0000ms, 55196ms total)
T1990 7346:933 JLINK_GetDebugInfo(0x10C = JLINKARM_DEBUG_INFO_DBG_ADDR_INDEX) -- Value=0xE000EDF0  returns 0x00 (0000ms, 55196ms total)
T1990 7346:933 JLINK_GetDebugInfo(0x01 = Unknown) -- Value=0x00000000  returns 0x00 (0000ms, 55196ms total)
T1990 7346:933 JLINK_ReadMemU32(0xE000ED00, 0x0001 Items, ...) -- CPU_ReadMem(4 bytes @ 0xE000ED00) - Data: 00 C2 0C 41  returns 0x01 (0001ms, 55197ms total)
T1990 7346:934 JLINK_GetDebugInfo(0x10F = JLINKARM_DEBUG_INFO_HAS_CORTEX_M_SECURITY_EXT_INDEX) -- Value=0x00000000  returns 0x00 (0000ms, 55197ms total)
T1990 7346:934 JLINK_SetResetType(JLINKARM_CM3_RESET_TYPE_NORMAL)  returns JLINKARM_CM3_RESET_TYPE_NORMAL (0000ms, 55197ms total)
T1990 7346:934 JLINK_Reset() -- CPU is running -- CPU_WriteMem(4 bytes @ 0xE000EDF0) -- CPU is running -- CPU_WriteMem(4 bytes @ 0xE000EDFC)Reset: Halt core after reset via DEMCR.VC_CORERESET. >0x35 TIF>Reset: Reset device via AIRCR.SYSRESETREQ. -- CPU is running -- CPU_WriteMem(4 bytes @ 0xE000ED0C) >0x0D TIF> >0x28 TIF> -- CPU_ReadMem(4 bytes @ 0xE000EDF0) -- CPU_ReadMem(4 bytes @ 0xE000EDF0) -- CPU is running -- CPU_WriteMem(4 bytes @ 0xE000EDF0) -- CPU is running -- CPU_WriteMem(4 bytes @ 0xE000EDFC)
 -- CPU_ReadMem(4 bytes @ 0xE000EDF0) -- CPU_WriteMem(4 bytes @ 0xE0002000) -- CPU_ReadMem(4 bytes @ 0xE000EDFC) -- CPU_ReadMem(4 bytes @ 0xE0001000) -- CPU_WriteMem(4 bytes @ 0xE0001000) (0075ms, 55272ms total)
T1990 7347:009 JLINK_ReadReg(R15 (PC))  returns 0x000001C4 (0000ms, 55272ms total)
T1990 7347:009 JLINK_ReadReg(XPSR)  returns 0xC1000000 (0001ms, 55273ms total)
T1990 7347:010 JLINK_Halt()  returns 0x00 (0000ms, 55273ms total)
T1990 7347:010 JLINK_ReadMemU32(0xE000EDF0, 0x0001 Items, ...) -- CPU_ReadMem(4 bytes @ 0xE000EDF0) - Data: 03 00 03 00  returns 0x01 (0000ms, 55273ms total)
T1990 7347:010 JLINK_WriteU32(0xE000EDF0, 0xA05F0003) -- CPU_WriteMem(4 bytes @ 0xE000EDF0)  returns 0x00 (0001ms, 55274ms total)
T1990 7347:011 JLINK_WriteU32(0xE000EDFC, 0x01000000) -- CPU_WriteMem(4 bytes @ 0xE000EDFC)  returns 0x00 (0001ms, 55275ms total)
T1990 7347:012 JLINK_GetHWStatus(...)  returns 0x00 (0001ms, 55276ms total)
T1990 7347:013 JLINK_GetNumBPUnits(Type = 0xFFFFFF00)  returns 0x04 (0000ms, 55276ms total)
T1990 7347:013 JLINK_GetNumBPUnits(Type = 0xF0)  returns 0x2000 (0000ms, 55276ms total)
T1990 7347:013 JLINK_GetNumWPUnits()  returns 0x02 (0001ms, 55277ms total)
T1990 7347:014 JLINK_GetSpeed()  returns 0xFA0 (0000ms, 55277ms total)
T1990 7347:014 JLINK_ReadMemU32(0xE000E004, 0x0001 Items, ...) -- CPU_ReadMem(4 bytes @ 0xE000E004) - Data: 00 00 00 00  returns 0x01 (0000ms, 55277ms total)
T1990 7347:014 JLINK_ReadReg(R15 (PC))  returns 0x000001C4 (0000ms, 55277ms total)
T1990 7347:014 JLINK_ReadReg(XPSR)  returns 0xC1000000 (0000ms, 55277ms total)
T1990 7347:077 JLINK_SetResetType(JLINKARM_CM3_RESET_TYPE_NORMAL)  returns JLINKARM_CM3_RESET_TYPE_NORMAL (0000ms, 55277ms total)
T1990 7347:077 JLINK_Reset() -- CPU_WriteMem(4 bytes @ 0xE000EDF0) -- CPU_WriteMem(4 bytes @ 0xE000EDFC)Reset: Halt core after reset via DEMCR.VC_CORERESET. >0x35 TIF>Reset: Reset device via AIRCR.SYSRESETREQ. -- CPU_WriteMem(4 bytes @ 0xE000ED0C) >0x0D TIF> >0x28 TIF> -- CPU_ReadMem(4 bytes @ 0xE000EDF0) -- CPU_ReadMem(4 bytes @ 0xE000EDF0) -- CPU_WriteMem(4 bytes @ 0xE000EDF0) -- CPU_WriteMem(4 bytes @ 0xE000EDFC) -- CPU_ReadMem(4 bytes @ 0xE000EDF0) -- CPU_WriteMem(4 bytes @ 0xE0002000)
 -- CPU_ReadMem(4 bytes @ 0xE000EDFC) -- CPU_ReadMem(4 bytes @ 0xE0001000) -- CPU_WriteMem(4 bytes @ 0xE0001000) (0076ms, 55353ms total)
T1990 7347:153 JLINK_ReadReg(R15 (PC))  returns 0x000001C4 (0000ms, 55353ms total)
T1990 7347:153 JLINK_ReadReg(XPSR)  returns 0xC1000000 (0000ms, 55353ms total)
T1990 7347:154 JLINK_ReadMemEx(0x000001C4, 0x003C Bytes, ..., Flags = 0x02000000) -- CPU_ReadMem(64 bytes @ 0x000001C0) -- Updating C cache (64 bytes @ 0x000001C0) -- Read from C cache (60 bytes @ 0x000001C4) - Data: 0A 48 02 68 0F 21 0A 43 02 60 09 48 80 47 09 48 ...  returns 0x3C (0001ms, 55354ms total)
T1990 7348:443 JLINK_ReadReg(R0)  returns 0xFFFFFFFF (0001ms, 55355ms total)
T1990 7348:444 JLINK_ReadReg(R1)  returns 0xFFFFFFFF (0000ms, 55355ms total)
T1990 7348:444 JLINK_ReadReg(R2)  returns 0xFFFFFFFF (0000ms, 55355ms total)
T1990 7348:444 JLINK_ReadReg(R3)  returns 0xFFFFFFFF (0000ms, 55355ms total)
T1990 7348:444 JLINK_ReadReg(R4)  returns 0xFFFFFFFF (0000ms, 55355ms total)
T1990 7348:444 JLINK_ReadReg(R5)  returns 0xFFFFFFFF (0000ms, 55355ms total)
T1990 7348:444 JLINK_ReadReg(R6)  returns 0xFFFFFFFF (0000ms, 55355ms total)
T1990 7348:444 JLINK_ReadReg(R7)  returns 0xFFFFFFFF (0000ms, 55355ms total)
T1990 7348:444 JLINK_ReadReg(R8)  returns 0xFFFFFFFF (0000ms, 55355ms total)
T1990 7348:444 JLINK_ReadReg(R9)  returns 0xFFFFFFFF (0000ms, 55355ms total)
T1990 7348:444 JLINK_ReadReg(R10)  returns 0xFFFFFFFF (0000ms, 55355ms total)
T1990 7348:444 JLINK_ReadReg(R11)  returns 0xFFFFFFFF (0000ms, 55355ms total)
T1990 7348:444 JLINK_ReadReg(R12)  returns 0xFFFFFFFF (0000ms, 55355ms total)
T1990 7348:444 JLINK_ReadReg(R13 (SP))  returns 0x20001990 (0000ms, 55355ms total)
T1990 7348:444 JLINK_ReadReg(R14)  returns 0xFFFFFFFF (0000ms, 55355ms total)
T1990 7348:444 JLINK_ReadReg(R15 (PC))  returns 0x000001C4 (0000ms, 55355ms total)
T1990 7348:444 JLINK_ReadReg(XPSR)  returns 0xC1000000 (0000ms, 55355ms total)
T1990 7348:444 JLINK_ReadReg(MSP)  returns 0x20001990 (0000ms, 55355ms total)
T1990 7348:444 JLINK_ReadReg(PSP)  returns 0xFFFFFFFC (0000ms, 55355ms total)
T1990 7348:444 JLINK_ReadReg(CFBP)  returns 0x00000000 (0000ms, 55355ms total)
T1990 7348:453 JLINK_ReadMemEx(0x2000000A, 0x0008 Bytes, ..., Flags = 0x02000000) -- CPU_ReadMem(64 bytes @ 0x20000000) -- Updating C cache (64 bytes @ 0x20000000) -- Read from C cache (8 bytes @ 0x2000000A) - Data: 00 00 00 00 00 00 00 00  returns 0x08 (0001ms, 55356ms total)
T0BA8 7348:495 JLINK_ReadMemEx(0x000001C4, 0x0002 Bytes, ..., Flags = 0x02000000) -- Read from C cache (2 bytes @ 0x000001C4) - Data: 0A 48  returns 0x02 (0000ms, 55356ms total)
T0BA8 7348:495 JLINK_SetBPEx(Addr = 0x000012D4, Type = 0xFFFFFFF2)  returns 0x00000001 (0000ms, 55356ms total)
T0BA8 7348:495 JLINK_Go() -- CPU_WriteMem(4 bytes @ 0xE0002000) -- CPU_ReadMem(4 bytes @ 0xE0001000) -- CPU_WriteMem(4 bytes @ 0xE0001000) -- CPU_WriteMem(4 bytes @ 0xE0002008) -- CPU_WriteMem(4 bytes @ 0xE000200C) -- CPU_WriteMem(4 bytes @ 0xE0002010) -- CPU_WriteMem(4 bytes @ 0xE0002014) -- CPU_WriteMem(4 bytes @ 0xE0001004) (0006ms, 55362ms total)
T0BA8 7348:601 JLINK_IsHalted()  returns TRUE (0004ms, 55366ms total)
T0BA8 7348:605 JLINK_Halt()  returns 0x00 (0000ms, 55362ms total)
T0BA8 7348:605 JLINK_IsHalted()  returns TRUE (0000ms, 55362ms total)
T0BA8 7348:605 JLINK_IsHalted()  returns TRUE (0000ms, 55362ms total)
T0BA8 7348:605 JLINK_IsHalted()  returns TRUE (0000ms, 55362ms total)
T0BA8 7348:605 JLINK_ReadReg(R15 (PC))  returns 0x00000780 (0000ms, 55362ms total)
T0BA8 7348:605 JLINK_ReadReg(XPSR)  returns 0x21000000 (0000ms, 55362ms total)
T0BA8 7348:605 JLINK_ClrBPEx(BPHandle = 0x00000001)  returns 0x00 (0000ms, 55362ms total)
T0BA8 7348:605 JLINK_ReadMemU32(0xE000ED30, 0x0001 Items, ...) -- CPU_ReadMem(4 bytes @ 0xE000ED30) - Data: 02 00 00 00  returns 0x01 (0001ms, 55363ms total)
T0BA8 7348:606 JLINK_ReadMemU32(0xE0001028, 0x0001 Items, ...) -- CPU_ReadMem(4 bytes @ 0xE0001028) - Data: 00 00 00 00  returns 0x01 (0001ms, 55364ms total)
T0BA8 7348:607 JLINK_ReadMemU32(0xE0001038, 0x0001 Items, ...) -- CPU_ReadMem(4 bytes @ 0xE0001038) - Data: 00 00 00 00  returns 0x01 (0001ms, 55365ms total)
T0BA8 7348:608 JLINK_ReadReg(R0)  returns 0x00000001 (0000ms, 55365ms total)
T0BA8 7348:608 JLINK_ReadReg(R1)  returns 0x20001940 (0000ms, 55365ms total)
T0BA8 7348:608 JLINK_ReadReg(R2)  returns 0x80000000 (0000ms, 55365ms total)
T0BA8 7348:608 JLINK_ReadReg(R3)  returns 0x01010101 (0000ms, 55365ms total)
T0BA8 7348:608 JLINK_ReadReg(R4)  returns 0x00000000 (0000ms, 55365ms total)
T0BA8 7348:608 JLINK_ReadReg(R5)  returns 0x00000001 (0000ms, 55365ms total)
T0BA8 7348:608 JLINK_ReadReg(R6)  returns 0x20000834 (0000ms, 55365ms total)
T0BA8 7348:608 JLINK_ReadReg(R7)  returns 0x00000001 (0000ms, 55365ms total)
T0BA8 7348:608 JLINK_ReadReg(R8)  returns 0xFFFFFFFF (0000ms, 55365ms total)
T0BA8 7348:608 JLINK_ReadReg(R9)  returns 0xFFFFFFFF (0000ms, 55365ms total)
T0BA8 7348:608 JLINK_ReadReg(R10)  returns 0x000015F8 (0000ms, 55365ms total)
T0BA8 7348:608 JLINK_ReadReg(R11)  returns 0x000015F8 (0000ms, 55365ms total)
T0BA8 7348:608 JLINK_ReadReg(R12)  returns 0xFFFFFFFF (0000ms, 55365ms total)
T0BA8 7348:608 JLINK_ReadReg(R13 (SP))  returns 0x20001940 (0000ms, 55365ms total)
T0BA8 7348:608 JLINK_ReadReg(R14)  returns 0x0000077B (0000ms, 55365ms total)
T0BA8 7348:608 JLINK_ReadReg(R15 (PC))  returns 0x00000780 (0000ms, 55365ms total)
T0BA8 7348:608 JLINK_ReadReg(XPSR)  returns 0x21000000 (0000ms, 55365ms total)
T0BA8 7348:608 JLINK_ReadReg(MSP)  returns 0x20001940 (0001ms, 55366ms total)
T0BA8 7348:609 JLINK_ReadReg(PSP)  returns 0xFFFFFFFC (0000ms, 55366ms total)
T0BA8 7348:609 JLINK_ReadReg(CFBP)  returns 0x00000000 (0000ms, 55366ms total)
T1990 7348:609 JLINK_ReadMemEx(0x2000194C, 0x0004 Bytes, ..., Flags = 0x02000000) -- CPU_ReadMem(64 bytes @ 0x20001940) -- Updating C cache (64 bytes @ 0x20001940) -- Read from C cache (4 bytes @ 0x2000194C) - Data: 11 09 00 00  returns 0x04 (0001ms, 55367ms total)
T1990 7348:610 JLINK_ReadMemEx(0x2000196C, 0x0004 Bytes, ..., Flags = 0x02000000) -- Read from C cache (4 bytes @ 0x2000196C) - Data: 79 06 00 00  returns 0x04 (0000ms, 55367ms total)
T1990 7348:610 JLINK_ReadMemEx(0x2000195C, 0x0004 Bytes, ..., Flags = 0x02000000) -- Read from C cache (4 bytes @ 0x2000195C) - Data: F8 15 00 00  returns 0x04 (0000ms, 55367ms total)
T1990 7348:610 JLINK_ReadMemEx(0x20001960, 0x0004 Bytes, ..., Flags = 0x02000000) -- Read from C cache (4 bytes @ 0x20001960) - Data: 30 09 00 20  returns 0x04 (0000ms, 55367ms total)
T1990 7348:610 JLINK_ReadMemEx(0x20001964, 0x0004 Bytes, ..., Flags = 0x02000000) -- Read from C cache (4 bytes @ 0x20001964) - Data: 00 00 00 00  returns 0x04 (0000ms, 55367ms total)
T1990 7348:610 JLINK_ReadMemEx(0x20001968, 0x0004 Bytes, ..., Flags = 0x02000000) -- Read from C cache (4 bytes @ 0x20001968) - Data: 00 00 00 00  returns 0x04 (0000ms, 55367ms total)
T1990 7348:610 JLINK_ReadMemEx(0x20001974, 0x0004 Bytes, ..., Flags = 0x02000000) -- Read from C cache (4 bytes @ 0x20001974) - Data: 65 01 00 00  returns 0x04 (0000ms, 55367ms total)
T1990 7348:610 JLINK_ReadMemEx(0x20001970, 0x0004 Bytes, ..., Flags = 0x02000000) -- Read from C cache (4 bytes @ 0x20001970) - Data: F8 15 00 00  returns 0x04 (0001ms, 55368ms total)
T1990 7348:611 JLINK_ReadMemEx(0x2000000A, 0x0008 Bytes, ..., Flags = 0x02000000) -- CPU_ReadMem(64 bytes @ 0x20000000) -- Updating C cache (64 bytes @ 0x20000000) -- Read from C cache (8 bytes @ 0x2000000A) - Data: 00 00 00 00 00 00 00 00  returns 0x08 (0002ms, 55370ms total)
T1990 7348:613 JLINK_ReadMemEx(0x00000780, 0x003C Bytes, ..., Flags = 0x02000000) -- CPU_ReadMem(64 bytes @ 0x00000780) -- Updating C cache (64 bytes @ 0x00000780) -- Read from C cache (60 bytes @ 0x00000780) - Data: AB BE 0E BD 08 B5 69 46 00 90 02 20 AB BE 08 BD ...  returns 0x3C (0002ms, 55372ms total)
T0BA8 7349:327 JLINK_ReadMemEx(0x00000780, 0x0002 Bytes, ..., Flags = 0x02000000) -- Read from C cache (2 bytes @ 0x00000780) - Data: AB BE  returns 0x02 (0000ms, 55372ms total)
T0BA8 7349:327 JLINK_WriteReg(R15 (PC), 0x00000782)  returns 0x00 (0000ms, 55372ms total)
T0BA8 7349:327 JLINK_Go() -- CPU_ReadMem(4 bytes @ 0xE0001000) -- CPU_WriteMem(4 bytes @ 0xE0001000) -- CPU_WriteMem(4 bytes @ 0xE0002008) (0005ms, 55377ms total)
T0BA8 7349:433 JLINK_IsHalted()  returns TRUE (0003ms, 55380ms total)
T0BA8 7349:436 JLINK_Halt()  returns 0x00 (0000ms, 55377ms total)
T0BA8 7349:436 JLINK_IsHalted()  returns TRUE (0000ms, 55377ms total)
T0BA8 7349:436 JLINK_IsHalted()  returns TRUE (0000ms, 55377ms total)
T0BA8 7349:436 JLINK_IsHalted()  returns TRUE (0000ms, 55377ms total)
T0BA8 7349:436 JLINK_ReadReg(R15 (PC))  returns 0x00000780 (0000ms, 55377ms total)
T0BA8 7349:436 JLINK_ReadReg(XPSR)  returns 0x21000000 (0000ms, 55377ms total)
T0BA8 7349:436 JLINK_ReadMemU32(0xE000ED30, 0x0001 Items, ...) -- CPU_ReadMem(4 bytes @ 0xE000ED30) - Data: 02 00 00 00  returns 0x01 (0001ms, 55378ms total)
T0BA8 7349:437 JLINK_ReadMemU32(0xE0001028, 0x0001 Items, ...) -- CPU_ReadMem(4 bytes @ 0xE0001028) - Data: 00 00 00 00  returns 0x01 (0001ms, 55379ms total)
T0BA8 7349:438 JLINK_ReadMemU32(0xE0001038, 0x0001 Items, ...) -- CPU_ReadMem(4 bytes @ 0xE0001038) - Data: 00 00 00 00  returns 0x01 (0001ms, 55380ms total)
T0BA8 7349:439 JLINK_ReadReg(R0)  returns 0x00000001 (0000ms, 55380ms total)
T0BA8 7349:439 JLINK_ReadReg(R1)  returns 0x20001940 (0000ms, 55380ms total)
T0BA8 7349:439 JLINK_ReadReg(R2)  returns 0x80000000 (0000ms, 55380ms total)
T0BA8 7349:439 JLINK_ReadReg(R3)  returns 0x01010101 (0000ms, 55380ms total)
T0BA8 7349:439 JLINK_ReadReg(R4)  returns 0x00000004 (0000ms, 55380ms total)
T0BA8 7349:439 JLINK_ReadReg(R5)  returns 0x00000002 (0000ms, 55380ms total)
T0BA8 7349:439 JLINK_ReadReg(R6)  returns 0x20000888 (0001ms, 55381ms total)
T0BA8 7349:440 JLINK_ReadReg(R7)  returns 0x00000001 (0000ms, 55381ms total)
T0BA8 7349:440 JLINK_ReadReg(R8)  returns 0xFFFFFFFF (0000ms, 55381ms total)
T0BA8 7349:440 JLINK_ReadReg(R9)  returns 0xFFFFFFFF (0000ms, 55381ms total)
T0BA8 7349:440 JLINK_ReadReg(R10)  returns 0x000015F8 (0000ms, 55381ms total)
T0BA8 7349:440 JLINK_ReadReg(R11)  returns 0x000015F8 (0000ms, 55381ms total)
T0BA8 7349:440 JLINK_ReadReg(R12)  returns 0xFFFFFFFF (0000ms, 55381ms total)
T0BA8 7349:440 JLINK_ReadReg(R13 (SP))  returns 0x20001940 (0000ms, 55381ms total)
T0BA8 7349:440 JLINK_ReadReg(R14)  returns 0x0000077B (0000ms, 55381ms total)
T0BA8 7349:440 JLINK_ReadReg(R15 (PC))  returns 0x00000780 (0000ms, 55381ms total)
T0BA8 7349:440 JLINK_ReadReg(XPSR)  returns 0x21000000 (0000ms, 55381ms total)
T0BA8 7349:440 JLINK_ReadReg(MSP)  returns 0x20001940 (0000ms, 55381ms total)
T0BA8 7349:440 JLINK_ReadReg(PSP)  returns 0xFFFFFFFC (0000ms, 55381ms total)
T0BA8 7349:440 JLINK_ReadReg(CFBP)  returns 0x00000000 (0000ms, 55381ms total)
T1990 7349:440 JLINK_ReadMemEx(0x2000194C, 0x0004 Bytes, ..., Flags = 0x02000000) -- CPU_ReadMem(64 bytes @ 0x20001940) -- Updating C cache (64 bytes @ 0x20001940) -- Read from C cache (4 bytes @ 0x2000194C) - Data: 11 09 00 00  returns 0x04 (0001ms, 55382ms total)
T1990 7349:441 JLINK_ReadMemEx(0x2000196C, 0x0004 Bytes, ..., Flags = 0x02000000) -- Read from C cache (4 bytes @ 0x2000196C) - Data: 93 06 00 00  returns 0x04 (0000ms, 55382ms total)
T1990 7349:441 JLINK_ReadMemEx(0x2000195C, 0x0004 Bytes, ..., Flags = 0x02000000) -- Read from C cache (4 bytes @ 0x2000195C) - Data: F8 15 00 00  returns 0x04 (0000ms, 55382ms total)
T1990 7349:441 JLINK_ReadMemEx(0x20001960, 0x0004 Bytes, ..., Flags = 0x02000000) -- Read from C cache (4 bytes @ 0x20001960) - Data: 30 09 00 20  returns 0x04 (0000ms, 55382ms total)
T1990 7349:442 JLINK_ReadMemEx(0x20001964, 0x0004 Bytes, ..., Flags = 0x02000000) -- Read from C cache (4 bytes @ 0x20001964) - Data: 00 00 00 00  returns 0x04 (0000ms, 55383ms total)
T1990 7349:442 JLINK_ReadMemEx(0x20001968, 0x0004 Bytes, ..., Flags = 0x02000000) -- Read from C cache (4 bytes @ 0x20001968) - Data: 00 00 00 00  returns 0x04 (0000ms, 55383ms total)
T1990 7349:442 JLINK_ReadMemEx(0x20001974, 0x0004 Bytes, ..., Flags = 0x02000000) -- Read from C cache (4 bytes @ 0x20001974) - Data: 65 01 00 00  returns 0x04 (0000ms, 55383ms total)
T1990 7349:442 JLINK_ReadMemEx(0x20001970, 0x0004 Bytes, ..., Flags = 0x02000000) -- Read from C cache (4 bytes @ 0x20001970) - Data: F8 15 00 00  returns 0x04 (0000ms, 55383ms total)
T1990 7349:442 JLINK_ReadMemEx(0x2000000A, 0x0008 Bytes, ..., Flags = 0x02000000) -- CPU_ReadMem(64 bytes @ 0x20000000) -- Updating C cache (64 bytes @ 0x20000000) -- Read from C cache (8 bytes @ 0x2000000A) - Data: 00 00 00 00 00 00 00 00  returns 0x08 (0001ms, 55384ms total)
T0BA8 7349:614 JLINK_ReadMemEx(0x00000780, 0x0002 Bytes, ..., Flags = 0x02000000) -- CPU_ReadMem(64 bytes @ 0x00000780) -- Updating C cache (64 bytes @ 0x00000780) -- Read from C cache (2 bytes @ 0x00000780) - Data: AB BE  returns 0x02 (0002ms, 55386ms total)
T0BA8 7349:616 JLINK_WriteReg(R15 (PC), 0x00000782)  returns 0x00 (0000ms, 55386ms total)
T0BA8 7349:616 JLINK_Go() -- CPU_ReadMem(4 bytes @ 0xE0001000) -- CPU_WriteMem(4 bytes @ 0xE0001000) (0004ms, 55390ms total)
T0BA8 7349:721 JLINK_IsHalted()  returns TRUE (0003ms, 55393ms total)
T0BA8 7349:724 JLINK_Halt()  returns 0x00 (0000ms, 55390ms total)
T0BA8 7349:724 JLINK_IsHalted()  returns TRUE (0000ms, 55390ms total)
T0BA8 7349:724 JLINK_IsHalted()  returns TRUE (0000ms, 55390ms total)
T0BA8 7349:724 JLINK_IsHalted()  returns TRUE (0000ms, 55390ms total)
T0BA8 7349:724 JLINK_ReadReg(R15 (PC))  returns 0x00000780 (0000ms, 55390ms total)
T0BA8 7349:724 JLINK_ReadReg(XPSR)  returns 0x21000000 (0000ms, 55390ms total)
T0BA8 7349:724 JLINK_ReadMemU32(0xE000ED30, 0x0001 Items, ...) -- CPU_ReadMem(4 bytes @ 0xE000ED30) - Data: 02 00 00 00  returns 0x01 (0001ms, 55391ms total)
T0BA8 7349:725 JLINK_ReadMemU32(0xE0001028, 0x0001 Items, ...) -- CPU_ReadMem(4 bytes @ 0xE0001028) - Data: 00 00 00 00  returns 0x01 (0001ms, 55392ms total)
T0BA8 7349:726 JLINK_ReadMemU32(0xE0001038, 0x0001 Items, ...) -- CPU_ReadMem(4 bytes @ 0xE0001038) - Data: 00 00 00 00  returns 0x01 (0001ms, 55393ms total)
T0BA8 7349:727 JLINK_ReadReg(R0)  returns 0x00000001 (0000ms, 55393ms total)
T0BA8 7349:727 JLINK_ReadReg(R1)  returns 0x20001940 (0000ms, 55393ms total)
T0BA8 7349:727 JLINK_ReadReg(R2)  returns 0x80000000 (0000ms, 55393ms total)
T0BA8 7349:727 JLINK_ReadReg(R3)  returns 0x01010101 (0000ms, 55393ms total)
T0BA8 7349:727 JLINK_ReadReg(R4)  returns 0x00000004 (0000ms, 55393ms total)
T0BA8 7349:727 JLINK_ReadReg(R5)  returns 0x00000002 (0000ms, 55393ms total)
T0BA8 7349:727 JLINK_ReadReg(R6)  returns 0x200008DC (0000ms, 55393ms total)
T0BA8 7349:727 JLINK_ReadReg(R7)  returns 0x00000001 (0000ms, 55393ms total)
T0BA8 7349:727 JLINK_ReadReg(R8)  returns 0xFFFFFFFF (0000ms, 55393ms total)
T0BA8 7349:727 JLINK_ReadReg(R9)  returns 0xFFFFFFFF (0001ms, 55394ms total)
T0BA8 7349:728 JLINK_ReadReg(R10)  returns 0x000015F8 (0000ms, 55394ms total)
T0BA8 7349:728 JLINK_ReadReg(R11)  returns 0x000015F8 (0000ms, 55394ms total)
T0BA8 7349:728 JLINK_ReadReg(R12)  returns 0xFFFFFFFF (0000ms, 55394ms total)
T0BA8 7349:728 JLINK_ReadReg(R13 (SP))  returns 0x20001940 (0000ms, 55394ms total)
T0BA8 7349:728 JLINK_ReadReg(R14)  returns 0x0000077B (0000ms, 55394ms total)
T0BA8 7349:728 JLINK_ReadReg(R15 (PC))  returns 0x00000780 (0000ms, 55394ms total)
T0BA8 7349:728 JLINK_ReadReg(XPSR)  returns 0x21000000 (0000ms, 55394ms total)
T0BA8 7349:728 JLINK_ReadReg(MSP)  returns 0x20001940 (0000ms, 55394ms total)
T0BA8 7349:728 JLINK_ReadReg(PSP)  returns 0xFFFFFFFC (0000ms, 55394ms total)
T0BA8 7349:728 JLINK_ReadReg(CFBP)  returns 0x00000000 (0000ms, 55394ms total)
